<Qucs Dataset 0.0.20>
<indep Rs 10>
  +1.00000000000000000000e+04
  +1.20000000000000000000e+05
  +2.30000000000000000000e+05
  +3.40000000000000000000e+05
  +4.50000000000000000000e+05
  +5.60000000000000000000e+05
  +6.70000000000000000000e+05
  +7.80000000000000000000e+05
  +8.90000000000000000000e+05
  +1.00000000000000000000e+06
</indep>
<indep Rt 10>
  +1.00000000000000000000e+04
  +1.20000000000000000000e+05
  +2.30000000000000000000e+05
  +3.40000000000000000000e+05
  +4.50000000000000000000e+05
  +5.60000000000000000000e+05
  +6.70000000000000000000e+05
  +7.80000000000000000000e+05
  +8.90000000000000000000e+05
  +1.00000000000000000000e+06
</indep>
<dep V1.I Rs Rt>
  -1.64999999999999999098e-04
  -2.53846153846153863010e-05
  -1.37499999999999987955e-05
  -9.42857142857142953632e-06
  -7.17391304347826024111e-06
  -5.78947368421052670022e-06
  -4.85294117647058781016e-06
  -4.17721518987341753785e-06
  -3.66666666666666614781e-06
  -3.26732673267326712856e-06
  -2.53846153846153761366e-05
  -1.37500000000000004895e-05
  -9.42857142857142784226e-06
  -7.17391304347826193517e-06
  -5.78947368421052500616e-06
  -4.85294117647058865719e-06
  -4.17721518987341753785e-06
  -3.66666666666666614781e-06
  -3.26732673267326670504e-06
  -2.94642857142857141246e-06
  -1.37500000000000360649e-05
  -9.42857142857142784226e-06
  -7.17391304347826024111e-06
  -5.78947368421052670022e-06
  -4.85294117647058781016e-06
  -4.17721518987341753785e-06
  -3.66666666666666657133e-06
  -3.26732673267326670504e-06
  -2.94642857142857098895e-06
  -2.68292682926829259251e-06
  -9.42857142857141767786e-06
  -7.17391304347826024111e-06
  -5.78947368421052670022e-06
  -4.85294117647058865719e-06
  -4.17721518987341753785e-06
  -3.66666666666666699485e-06
  -3.26732673267326712856e-06
  -2.94642857142857098895e-06
  -2.68292682926829259251e-06
  -2.46268656716417893931e-06
  -7.17391304347824668858e-06
  -5.78947368421052331209e-06
  -4.85294117647058611609e-06
  -4.17721518987341753785e-06
  -3.66666666666666614781e-06
  -3.26732673267326755208e-06
  -2.94642857142857098895e-06
  -2.68292682926829216899e-06
  -2.46268656716417893931e-06
  -2.27586206896551732824e-06
  -5.78947368421053008836e-06
  -4.85294117647059119829e-06
  -4.17721518987341669082e-06
  -3.66666666666666741836e-06
  -3.26732673267326755208e-06
  -2.94642857142857141246e-06
  -2.68292682926829259251e-06
  -2.46268656716417893931e-06
  -2.27586206896551648121e-06
  -2.11538461538461510157e-06
  -4.85294117647059458642e-06
  -4.17721518987341499675e-06
  -3.66666666666666487726e-06
  -3.26732673267326755208e-06
  -2.94642857142857141246e-06
  -2.68292682926829259251e-06
  -2.46268656716417893931e-06
  -2.27586206896551690473e-06
  -2.11538461538461552508e-06
  -1.97604790419161699405e-06
  -4.17721518987341838489e-06
  -3.66666666666666657133e-06
  -3.26732673267326670504e-06
  -2.94642857142857056543e-06
  -2.68292682926829259251e-06
  -2.46268656716417893931e-06
  -2.27586206896551732824e-06
  -2.11538461538461510157e-06
  -1.97604790419161614702e-06
  -1.85393258426966244963e-06
  -3.66666666666668351199e-06
  -3.26732673267326670504e-06
  -2.94642857142857141246e-06
  -2.68292682926829343954e-06
  -2.46268656716417893931e-06
  -2.27586206896551690473e-06
  -2.11538461538461552508e-06
  -1.97604790419161657053e-06
  -1.85393258426966266139e-06
  -1.74603174603174579476e-06
  -3.26732673267324637625e-06
  -2.94642857142857480060e-06
  -2.68292682926829174548e-06
  -2.46268656716417893931e-06
  -2.27586206896551732824e-06
  -2.11538461538461552508e-06
  -1.97604790419161699405e-06
  -1.85393258426966244963e-06
  -1.74603174603174600651e-06
  -1.64999999999999987239e-06
</dep>
<dep V_Out.V Rs Rt>
  +1.64999999999999991118e+00
  +2.53846153846153832490e-01
  +1.37499999999999983347e-01
  +9.42857142857142921377e-02
  +7.17391304347825969900e-02
  +5.78947368421052627196e-02
  +4.85294117647058764753e-02
  +4.17721518987341708384e-02
  +3.66666666666666599128e-02
  +3.26732673267326675925e-02
  +3.04615384615384598987e+00
  +1.64999999999999991118e+00
  +1.13142857142857122810e+00
  +8.60869565217391330414e-01
  +6.94736842105263097125e-01
  +5.82352941176470517703e-01
  +5.01265822784810133328e-01
  +4.39999999999999946709e-01
  +3.92079207920791983355e-01
  +3.53571428571428481025e-01
  +3.16249999999999964473e+00
  +2.16857142857142859427e+00
  +1.64999999999999991118e+00
  +1.33157894736842119521e+00
  +1.11617647058823532547e+00
  +9.60759493670886088879e-01
  +8.43333333333333379223e-01
  +7.51485148514851486468e-01
  +6.77678571428571463464e-01
  +6.17073170731707310033e-01
  +3.20571428571428551635e+00
  +2.43913043478260860297e+00
  +1.96842105263157884920e+00
  +1.65000000000000013323e+00
  +1.42025316455696182238e+00
  +1.24666666666666658969e+00
  +1.11089108910891076754e+00
  +1.00178571428571427937e+00
  +9.12195121951219323186e-01
  +8.37313432835820714573e-01
  +3.22826086956521729476e+00
  +2.60526315789473716933e+00
  +2.18382352941176494099e+00
  +1.87974683544303822202e+00
  +1.64999999999999991118e+00
  +1.47029702970297027065e+00
  +1.32589285714285720630e+00
  +1.20731707317073166941e+00
  +1.10820895522388052079e+00
  +1.02413793103448269584e+00
  +3.24210526315789460128e+00
  +2.71764705882352908262e+00
  +2.33924050632911395553e+00
  +2.05333333333333323267e+00
  +1.82970297029702932967e+00
  +1.65000000000000013323e+00
  +1.50243902439024390461e+00
  +1.37910447761194010496e+00
  +1.27448275862068971520e+00
  +1.18461538461538462563e+00
  +3.25147058823529411242e+00
  +2.79873417721519013313e+00
  +2.45666666666666699825e+00
  +2.18910891089108927687e+00
  +1.97410714285714261607e+00
  +1.79756097560975613980e+00
  +1.64999999999999991118e+00
  +1.52482758620689651252e+00
  +1.41730769230769193534e+00
  +1.32395209580838302266e+00
  +3.25822784810126542254e+00
  +2.85999999999999987566e+00
  +2.54851485148514855794e+00
  +2.29821428571428620913e+00
  +2.09268292682926793091e+00
  +1.92089552238805971740e+00
  +1.77517241379310330984e+00
  +1.64999999999999991118e+00
  +1.54131736526946117039e+00
  +1.44606741573033725778e+00
  +3.26333333333333319715e+00
  +2.90792079207920783901e+00
  +2.62232142857142846992e+00
  +2.38780487804878038816e+00
  +2.19179104477611907953e+00
  +2.02551724137931055125e+00
  +1.88269230769230744293e+00
  +1.75868263473053887402e+00
  +1.64999999999999991118e+00
  +1.55396825396825399856e+00
  +3.26732673267326712008e+00
  +2.94642857142857117481e+00
  +2.68292682926829284540e+00
  +2.46268656716417932984e+00
  +2.27586206896551690448e+00
  +2.11538461538461541878e+00
  +1.97604790419161657766e+00
  +1.85393258426966300867e+00
  +1.74603174603174582380e+00
  +1.64999999999999991118e+00
</dep>
<dep _net0.V Rs Rt>
  +3.29999999999999982236e+00
  +3.29999999999999982236e+00
  +3.29999999999999982236e+00
  +3.29999999999999982236e+00
  +3.29999999999999982236e+00
  +3.29999999999999982236e+00
  +3.29999999999999982236e+00
  +3.29999999999999982236e+00
  +3.29999999999999982236e+00
  +3.29999999999999982236e+00
  +3.29999999999999982236e+00
  +3.29999999999999982236e+00
  +3.29999999999999982236e+00
  +3.29999999999999982236e+00
  +3.29999999999999982236e+00
  +3.29999999999999982236e+00
  +3.29999999999999982236e+00
  +3.29999999999999982236e+00
  +3.29999999999999982236e+00
  +3.29999999999999982236e+00
  +3.29999999999999982236e+00
  +3.29999999999999982236e+00
  +3.29999999999999982236e+00
  +3.29999999999999982236e+00
  +3.29999999999999982236e+00
  +3.29999999999999982236e+00
  +3.29999999999999982236e+00
  +3.29999999999999982236e+00
  +3.29999999999999982236e+00
  +3.29999999999999982236e+00
  +3.29999999999999982236e+00
  +3.29999999999999982236e+00
  +3.29999999999999982236e+00
  +3.29999999999999982236e+00
  +3.29999999999999982236e+00
  +3.29999999999999982236e+00
  +3.29999999999999982236e+00
  +3.29999999999999982236e+00
  +3.29999999999999982236e+00
  +3.29999999999999982236e+00
  +3.29999999999999982236e+00
  +3.29999999999999982236e+00
  +3.29999999999999982236e+00
  +3.29999999999999982236e+00
  +3.29999999999999982236e+00
  +3.29999999999999982236e+00
  +3.29999999999999982236e+00
  +3.29999999999999982236e+00
  +3.29999999999999982236e+00
  +3.29999999999999982236e+00
  +3.29999999999999982236e+00
  +3.29999999999999982236e+00
  +3.29999999999999982236e+00
  +3.29999999999999982236e+00
  +3.29999999999999982236e+00
  +3.29999999999999982236e+00
  +3.29999999999999982236e+00
  +3.29999999999999982236e+00
  +3.29999999999999982236e+00
  +3.29999999999999982236e+00
  +3.29999999999999982236e+00
  +3.29999999999999982236e+00
  +3.29999999999999982236e+00
  +3.29999999999999982236e+00
  +3.29999999999999982236e+00
  +3.29999999999999982236e+00
  +3.29999999999999982236e+00
  +3.29999999999999982236e+00
  +3.29999999999999982236e+00
  +3.29999999999999982236e+00
  +3.29999999999999982236e+00
  +3.29999999999999982236e+00
  +3.29999999999999982236e+00
  +3.29999999999999982236e+00
  +3.29999999999999982236e+00
  +3.29999999999999982236e+00
  +3.29999999999999982236e+00
  +3.29999999999999982236e+00
  +3.29999999999999982236e+00
  +3.29999999999999982236e+00
  +3.29999999999999982236e+00
  +3.29999999999999982236e+00
  +3.29999999999999982236e+00
  +3.29999999999999982236e+00
  +3.29999999999999982236e+00
  +3.29999999999999982236e+00
  +3.29999999999999982236e+00
  +3.29999999999999982236e+00
  +3.29999999999999982236e+00
  +3.29999999999999982236e+00
  +3.29999999999999982236e+00
  +3.29999999999999982236e+00
  +3.29999999999999982236e+00
  +3.29999999999999982236e+00
  +3.29999999999999982236e+00
  +3.29999999999999982236e+00
  +3.29999999999999982236e+00
  +3.29999999999999982236e+00
  +3.29999999999999982236e+00
  +3.29999999999999982236e+00
</dep>
